
T17C0 000:044 SEGGER J-Link V4.60a Log File (0001ms, 0045ms total)
T17C0 000:044 DLL Compiled: Jan 16 2013 17:15:30 (0001ms, 0045ms total)
T17C0 000:044 Logging started @ 2016-12-13 17:15 (0001ms, 0045ms total)
T17C0 000:045 JLINK_SetWarnOutHandler(...) (0000ms, 0045ms total)
T17C0 000:045 JLINK_OpenEx(...)
Firmware: J-Link ARM V8 compiled Nov 14 2012 22:34:52
Hardware: V8.00
S/N: 304439649
Feature(s): RDI,FlashDL,FlashBP,JFlash,GDBFULL  returns O.K. (0029ms, 0074ms total)
T17C0 000:074 JLINK_SetErrorOutHandler(...) (0000ms, 0074ms total)
T17C0 000:074 JLINK_ExecCommand("ProjectFile = "C:\Users\lenovo\Desktop\ÖÇÄÜÈ¼ÆøÖÕ¶Ë433°æ±¾11.23\Project\RVMDK£¨uv4£©\JLinkSettings.ini"", ...)  returns 0x00 (0001ms, 0075ms total)
T17C0 000:077 JLINK_ExecCommand("Device = STM32F103RC", ...)
                JLINK_ExecCommand("map ram 0x20000000 - 0x2000BFFF", ...)  returns 0x00 (0000ms, 0000ms total)
                JLINK_AddMirrorAreaEx(Addr = 0x00000000, Size = 0x00000000) (0000ms, 0000ms total)
              Device "STM32F103RC" selected (256 KB flash, 48 KB RAM).  returns 0x00 (0003ms, 0078ms total)
T17C0 000:080 JLINK_ExecCommand("DisableConnectionTimeout", ...)  returns 0x00 (0000ms, 0078ms total)
T17C0 000:080 JLINK_GetHardwareVersion()  returns 0x13880 (0000ms, 0078ms total)
T17C0 000:080 JLINK_GetDLLVersion()  returns 46001 (0000ms, 0078ms total)
T17C0 000:080 JLINK_GetFirmwareString(...) (0000ms, 0078ms total)
T17C0 000:084 JLINK_GetDLLVersion()  returns 46001 (0000ms, 0078ms total)
T17C0 000:084 JLINK_GetCompileDateTime() (0000ms, 0078ms total)
T17C0 000:086 JLINK_GetFirmwareString(...) (0000ms, 0078ms total)
T17C0 000:087 JLINK_GetHardwareVersion()  returns 0x13880 (0000ms, 0078ms total)
T17C0 000:092 JLINK_TIF_Select(JLINKARM_TIF_SWD)  returns 0x00 (0005ms, 0083ms total)
T17C0 000:097 JLINK_SetSpeed(500) (0001ms, 0084ms total)
T17C0 000:098 JLINK_GetId() >0x108 TIF>Found SWD-DP with ID 0x1BA01477 >0x0D TIF> >0x28 TIF> >0x0D TIF> >0x28 TIF> >0x0D TIF> >0x21 TIF> >0x0D TIF> >0x28 TIF> >0x0D TIF> >0x28 TIF> >0x0D TIF> >0x28 TIF> >0x0D TIF> >0x21 TIF> >0x0D TIF> >0x21 TIF> >0x0D TIF> >0x28 TIF> >0x0D TIF> >0x21 TIF> >0x0D TIF> >0x21 TIF> >0x108 TIF>Found SWD-DP with ID 0x1BA01477 >0x0D TIF> >0x21 TIF> >0x0D TIF> >0x28 TIF> >0x0D TIF> >0x28 TIF> >0x0D TIF> >0x21 TIF> >0x0D TIF> >0x21 TIF> >0x0D TIF> >0x28 TIF> >0x0D TIF> >0x21 TIF>
 >0x0D TIF> >0x21 TIF> >0x0D TIF> >0x21 TIF> >0x0D TIF> >0x21 TIF> >0x0D TIF> >0x21 TIF> >0x0D TIF> >0x28 TIF> >0x0D TIF> >0x28 TIF> >0x0D TIF> >0x21 TIF> >0x0D TIF> >0x21 TIF> >0x0D TIF> >0x28 TIF> >0x0D TIF> >0x21 TIF> >0x0D TIF> >0x21 TIF> >0x0D TIF> >0x28 TIF> >0x0D TIF> >0x28 TIF> >0x0D TIF> >0x28 TIF> >0x0D TIF> >0x21 TIF> >0x0D TIF> >0x21 TIF> >0x0D TIF> >0x28 TIF> >0x0D TIF> >0x28 TIF> >0x0D TIF> >0x28 TIF> >0x0D TIF> >0x21 TIF> >0x0D TIF> >0x21 TIF> >0x0D TIF> >0x21 TIF>TPIU fitted.ETM fitted.
 >0x0D TIF> >0x28 TIF> >0x0D TIF> >0x21 TIF> >0x0D TIF> >0x21 TIF> >0x0D TIF> >0x28 TIF> >0x0D TIF> >0x21 TIF> >0x0D TIF> >0x21 TIF>FPUnit: 6 code (BP) slots and 2 literal slots >0x0D TIF> >0x28 TIF> >0x0D TIF> >0x21 TIF> >0x0D TIF> >0x21 TIF> >0x0D TIF> >0x28 TIF> >0x0D TIF> >0x21 TIF> >0x0D TIF> >0x21 TIF> >0x0D TIF> >0x28 TIF> >0x0D TIF> >0x21 TIF> >0x0D TIF> >0x21 TIF> >0x0D TIF> >0x28 TIF> >0x0D TIF> >0x21 TIF> >0x0D TIF> >0x21 TIF>Found Cortex-M3 r1p1, Little endian. >0x0D TIF> >0x21 TIF>
  returns 0x1BA01477 (0135ms, 0219ms total)
T17C0 000:233 JLINK_GetDeviceFamily()  returns 3 (0000ms, 0219ms total)
T17C0 000:235 JLINK_ReadMem (0xE00FFFF0, 0x0010 Bytes, ...) -- CPU is running -- CPU_ReadMem(16 bytes @ 0xE00FFFF0) -- Data:  0D 00 00 00 10 00 00 00 05 00 00 00 B1 00 00 00  returns 0x00 (0002ms, 0221ms total)
T17C0 000:237 JLINK_ReadMem (0xE00FFFD0, 0x0020 Bytes, ...) -- CPU is running -- CPU_ReadMem(32 bytes @ 0xE00FFFD0) -- Data:  00 00 00 00 00 00 00 00 00 00 00 00 00 00 00 00 ...  returns 0x00 (0002ms, 0223ms total)
T17C0 000:239 JLINK_ReadMem (0xE00FF000, 0x0018 Bytes, ...) -- CPU is running -- CPU_ReadMem(24 bytes @ 0xE00FF000) -- Data:  03 F0 F0 FF 03 20 F0 FF 03 30 F0 FF 03 10 F0 FF ...  returns 0x00 (0002ms, 0225ms total)
T17C0 000:241 JLINK_ReadMemU32(0xE000ED00, 0x0001 Items, ...) -- CPU is running -- CPU_ReadMem(4 bytes @ 0xE000ED00) -- Data:  31 C2 1F 41  returns 0x01 (0002ms, 0227ms total)
T17C0 000:243 JLINK_SetResetType(JLINKARM_RESET_TYPE_NORMAL)  returns JLINKARM_RESET_TYPE_NORMAL (0000ms, 0227ms total)
T17C0 000:243 JLINK_Reset() -- CPU is running -- CPU_WriteMem(4 bytes @ 0xE000EDF0) -- CPU is running -- CPU_WriteMem(4 bytes @ 0xE000EDFC) >0x35 TIF> -- CPU is running -- CPU_WriteMem(4 bytes @ 0xE000ED0C) -- CPU is running -- CPU_ReadMem(4 bytes @ 0xE000EDF0) -- CPU is running -- CPU_ReadMem(4 bytes @ 0xE000EDF0) -- CPU is running -- CPU_WriteMem(4 bytes @ 0xE000EDF0) -- CPU is running -- CPU_WriteMem(4 bytes @ 0xE000EDFC) -- CPU is running -- CPU_ReadMem(4 bytes @ 0xE000EDF0)
 -- CPU_WriteMem(4 bytes @ 0xE0002000) (0027ms, 0254ms total)
T17C0 000:270 JLINK_Halt()  returns 0x00 (0000ms, 0254ms total)
T17C0 000:270 JLINK_IsHalted()  returns TRUE (0000ms, 0254ms total)
T17C0 000:270 JLINK_ReadMemU32(0xE000EDF0, 0x0001 Items, ...) -- CPU_ReadMem(4 bytes @ 0xE000EDF0) -- Data:  03 00 03 00  returns 0x01 (0002ms, 0256ms total)
T17C0 000:272 JLINK_WriteU32(0xE000EDF0, 0xA05F0003) -- CPU_WriteMem(4 bytes @ 0xE000EDF0)  returns 0x00 (0001ms, 0257ms total)
T17C0 000:273 JLINK_WriteU32(0xE000EDFC, 0x01000000) -- CPU_WriteMem(4 bytes @ 0xE000EDFC)  returns 0x00 (0001ms, 0258ms total)
T17C0 000:279 JLINK_GetHWStatus(...)  returns 0x00 (0002ms, 0260ms total)
T17C0 000:285 JLINK_GetNumBPUnits(Type = 0xFFFFFF00)  returns 0x06 (0000ms, 0260ms total)
T17C0 000:285 JLINK_GetNumBPUnits(Type = 0xF0)  returns 0x2000 (0000ms, 0260ms total)
T17C0 000:285 JLINK_GetNumWPUnits()  returns 0x04 (0000ms, 0260ms total)
T17C0 000:289 JLINK_GetSpeed()  returns 0x1F4 (0000ms, 0260ms total)
T17C0 000:292 JLINK_ReadMemU32(0xE000E004, 0x0001 Items, ...) -- CPU_ReadMem(4 bytes @ 0xE000E004) -- Data:  01 00 00 00  returns 0x01 (0001ms, 0261ms total)
T17C0 000:293 JLINK_ReadMemU32(0xE000E004, 0x0001 Items, ...) -- CPU_ReadMem(4 bytes @ 0xE000E004) -- Data:  01 00 00 00  returns 0x01 (0001ms, 0262ms total)
T17C0 000:294 JLINK_WriteMem(0xE0001000, 0x001C Bytes, ...) -- Data:  01 00 00 00 00 00 00 00 00 00 00 00 00 00 00 00 ... -- CPU_WriteMem(28 bytes @ 0xE0001000)  returns 0x1C (0002ms, 0264ms total)
T17C0 000:296 JLINK_ReadMem (0xE0001000, 0x001C Bytes, ...) -- CPU_ReadMem(28 bytes @ 0xE0001000) -- Data:  01 00 00 40 00 00 00 00 00 00 00 00 00 00 00 00 ...  returns 0x00 (0002ms, 0266ms total)
T17C0 000:298 JLINK_Halt()  returns 0x00 (0000ms, 0266ms total)
T17C0 000:298 JLINK_IsHalted()  returns TRUE (0000ms, 0266ms total)
T17C0 000:299 JLINK_WriteMem(0x20000000, 0x0164 Bytes, ...) -- Data:  00 BE 0A E0 0D 78 2D 06 68 40 08 24 40 00 00 D3 ... -- CPU_WriteMem(356 bytes @ 0x20000000)  returns 0x164 (0011ms, 0277ms total)
T17C0 000:310 JLINK_WriteReg(R0, 0x08000000)  returns 0x00 (0000ms, 0277ms total)
T17C0 000:310 JLINK_WriteReg(R1, 0x007A1200)  returns 0x00 (0000ms, 0277ms total)
T17C0 000:310 JLINK_WriteReg(R2, 0x00000001)  returns 0x00 (0000ms, 0277ms total)
T17C0 000:310 JLINK_WriteReg(R3, 0x00000000)  returns 0x00 (0000ms, 0277ms total)
T17C0 000:310 JLINK_WriteReg(R4, 0x00000000)  returns 0x00 (0000ms, 0277ms total)
T17C0 000:310 JLINK_WriteReg(R5, 0x00000000)  returns 0x00 (0000ms, 0277ms total)
T17C0 000:310 JLINK_WriteReg(R6, 0x00000000)  returns 0x00 (0000ms, 0277ms total)
T17C0 000:310 JLINK_WriteReg(R7, 0x00000000)  returns 0x00 (0000ms, 0277ms total)
T17C0 000:310 JLINK_WriteReg(R8, 0x00000000)  returns 0x00 (0000ms, 0277ms total)
T17C0 000:310 JLINK_WriteReg(R9, 0x20000160)  returns 0x00 (0000ms, 0277ms total)
T17C0 000:310 JLINK_WriteReg(R10, 0x00000000)  returns 0x00 (0000ms, 0277ms total)
T17C0 000:310 JLINK_WriteReg(R11, 0x00000000)  returns 0x00 (0000ms, 0277ms total)
T17C0 000:310 JLINK_WriteReg(R12, 0x00000000)  returns 0x00 (0000ms, 0277ms total)
T17C0 000:310 JLINK_WriteReg(R13, 0x20000800)  returns 0x00 (0000ms, 0277ms total)
T17C0 000:310 JLINK_WriteReg(R14, 0x20000001)  returns 0x00 (0000ms, 0277ms total)
T17C0 000:310 JLINK_WriteReg(R15, 0x20000038)  returns 0x00 (0000ms, 0277ms total)
T17C0 000:310 JLINK_WriteReg(XPSR, 0x01000000)  returns 0x00 (0000ms, 0277ms total)
T17C0 000:310 JLINK_WriteReg(MSP, 0x20000800)  returns 0x00 (0000ms, 0277ms total)
T17C0 000:310 JLINK_WriteReg(PSP, 0x20000800)  returns 0x00 (0000ms, 0277ms total)
T17C0 000:310 JLINK_WriteReg(CFBP, 0x00000000)  returns 0x00 (0000ms, 0277ms total)
T17C0 000:310 JLINK_SetBPEx(Addr = 0x20000000, Type = 0xFFFFFFF2) -- CPU_ReadMem(2 bytes @ 0x20000000)  returns 0x00000001 (0002ms, 0279ms total)
T17C0 000:312 JLINK_Go() -- CPU_WriteMem(2 bytes @ 0x20000000) -- CPU_WriteMem(4 bytes @ 0xE0002008) -- CPU_WriteMem(4 bytes @ 0xE000200C) -- CPU_WriteMem(4 bytes @ 0xE0002010) -- CPU_WriteMem(4 bytes @ 0xE0002014) -- CPU_WriteMem(4 bytes @ 0xE0002018) -- CPU_WriteMem(4 bytes @ 0xE000201C) (0012ms, 0291ms total)
T17C0 000:324 JLINK_IsHalted() -- CPU_ReadMem(2 bytes @ 0x20000000)  returns TRUE (0009ms, 0300ms total)
T17C0 000:333 JLINK_ReadReg(R15)  returns 0x20000000 (0000ms, 0291ms total)
T17C0 000:333 JLINK_ClrBPEx(BPHandle = 0x00000001)  returns 0x00 (0000ms, 0291ms total)
T17C0 000:333 JLINK_ReadReg(R0)  returns 0x00000000 (0000ms, 0291ms total)
T17C0 000:334 JLINK_WriteReg(R0, 0x08000000)  returns 0x00 (0000ms, 0291ms total)
T17C0 000:334 JLINK_WriteReg(R1, 0x007A1200)  returns 0x00 (0000ms, 0291ms total)
T17C0 000:334 JLINK_WriteReg(R2, 0x00000001)  returns 0x00 (0000ms, 0291ms total)
T17C0 000:334 JLINK_WriteReg(R3, 0x00000000)  returns 0x00 (0000ms, 0291ms total)
T17C0 000:334 JLINK_WriteReg(R4, 0x00000000)  returns 0x00 (0000ms, 0291ms total)
T17C0 000:334 JLINK_WriteReg(R5, 0x00000000)  returns 0x00 (0000ms, 0291ms total)
T17C0 000:334 JLINK_WriteReg(R6, 0x00000000)  returns 0x00 (0000ms, 0291ms total)
T17C0 000:334 JLINK_WriteReg(R7, 0x00000000)  returns 0x00 (0000ms, 0291ms total)
T17C0 000:334 JLINK_WriteReg(R8, 0x00000000)  returns 0x00 (0000ms, 0291ms total)
T17C0 000:334 JLINK_WriteReg(R9, 0x20000160)  returns 0x00 (0000ms, 0291ms total)
T17C0 000:334 JLINK_WriteReg(R10, 0x00000000)  returns 0x00 (0000ms, 0291ms total)
T17C0 000:334 JLINK_WriteReg(R11, 0x00000000)  returns 0x00 (0000ms, 0291ms total)
T17C0 000:334 JLINK_WriteReg(R12, 0x00000000)  returns 0x00 (0000ms, 0291ms total)
T17C0 000:334 JLINK_WriteReg(R13, 0x20000800)  returns 0x00 (0000ms, 0291ms total)
T17C0 000:334 JLINK_WriteReg(R14, 0x20000001)  returns 0x00 (0000ms, 0291ms total)
T17C0 000:334 JLINK_WriteReg(R15, 0x2000007C)  returns 0x00 (0000ms, 0291ms total)
T17C0 000:334 JLINK_WriteReg(XPSR, 0x01000000)  returns 0x00 (0000ms, 0291ms total)
T17C0 000:334 JLINK_WriteReg(MSP, 0x20000800)  returns 0x00 (0000ms, 0291ms total)
T17C0 000:334 JLINK_WriteReg(PSP, 0x20000800)  returns 0x00 (0000ms, 0291ms total)
T17C0 000:334 JLINK_WriteReg(CFBP, 0x00000000)  returns 0x00 (0000ms, 0291ms total)
T17C0 000:334 JLINK_SetBPEx(Addr = 0x20000000, Type = 0xFFFFFFF2)  returns 0x00000002 (0000ms, 0291ms total)
T17C0 000:334 JLINK_Go() (0004ms, 0295ms total)
T17C0 000:338 JLINK_IsHalted()  returns FALSE (0001ms, 0296ms total)
T17C0 000:396 JLINK_IsHalted() -- CPU_ReadMem(2 bytes @ 0x20000000)  returns TRUE (0009ms, 0304ms total)
T17C0 000:405 JLINK_ReadReg(R15)  returns 0x20000000 (0000ms, 0295ms total)
T17C0 000:405 JLINK_ClrBPEx(BPHandle = 0x00000002)  returns 0x00 (0000ms, 0295ms total)
T17C0 000:405 JLINK_ReadReg(R0)  returns 0x00000000 (0000ms, 0295ms total)
T17C0 000:455 JLINK_WriteReg(R0, 0x00000001)  returns 0x00 (0000ms, 0295ms total)
T17C0 000:455 JLINK_WriteReg(R1, 0x007A1200)  returns 0x00 (0000ms, 0295ms total)
T17C0 000:455 JLINK_WriteReg(R2, 0x00000001)  returns 0x00 (0000ms, 0295ms total)
T17C0 000:455 JLINK_WriteReg(R3, 0x00000000)  returns 0x00 (0000ms, 0295ms total)
T17C0 000:455 JLINK_WriteReg(R4, 0x00000000)  returns 0x00 (0000ms, 0295ms total)
T17C0 000:455 JLINK_WriteReg(R5, 0x00000000)  returns 0x00 (0000ms, 0295ms total)
T17C0 000:455 JLINK_WriteReg(R6, 0x00000000)  returns 0x00 (0000ms, 0295ms total)
T17C0 000:455 JLINK_WriteReg(R7, 0x00000000)  returns 0x00 (0000ms, 0295ms total)
T17C0 000:455 JLINK_WriteReg(R8, 0x00000000)  returns 0x00 (0000ms, 0295ms total)
T17C0 000:455 JLINK_WriteReg(R9, 0x20000160)  returns 0x00 (0000ms, 0295ms total)
T17C0 000:455 JLINK_WriteReg(R10, 0x00000000)  returns 0x00 (0000ms, 0295ms total)
T17C0 000:455 JLINK_WriteReg(R11, 0x00000000)  returns 0x00 (0000ms, 0295ms total)
T17C0 000:455 JLINK_WriteReg(R12, 0x00000000)  returns 0x00 (0000ms, 0295ms total)
T17C0 000:455 JLINK_WriteReg(R13, 0x20000800)  returns 0x00 (0000ms, 0295ms total)
T17C0 000:455 JLINK_WriteReg(R14, 0x20000001)  returns 0x00 (0000ms, 0295ms total)
T17C0 000:455 JLINK_WriteReg(R15, 0x2000006A)  returns 0x00 (0000ms, 0295ms total)
T17C0 000:456 JLINK_WriteReg(XPSR, 0x01000000)  returns 0x00 (0000ms, 0296ms total)
T17C0 000:456 JLINK_WriteReg(MSP, 0x20000800)  returns 0x00 (0000ms, 0296ms total)
T17C0 000:456 JLINK_WriteReg(PSP, 0x20000800)  returns 0x00 (0000ms, 0296ms total)
T17C0 000:456 JLINK_WriteReg(CFBP, 0x00000000)  returns 0x00 (0000ms, 0296ms total)
T17C0 000:456 JLINK_SetBPEx(Addr = 0x20000000, Type = 0xFFFFFFF2)  returns 0x00000003 (0000ms, 0296ms total)
T17C0 000:456 JLINK_Go() (0003ms, 0299ms total)
T17C0 000:459 JLINK_IsHalted() -- CPU_ReadMem(2 bytes @ 0x20000000)  returns TRUE (0010ms, 0309ms total)
T17C0 000:469 JLINK_ReadReg(R15)  returns 0x20000000 (0000ms, 0299ms total)
T17C0 000:469 JLINK_ClrBPEx(BPHandle = 0x00000003)  returns 0x00 (0000ms, 0299ms total)
T17C0 000:469 JLINK_ReadReg(R0)  returns 0x00000000 (0000ms, 0299ms total)
T17C0 000:471 JLINK_WriteMem(0x20000000, 0x0164 Bytes, ...) -- Data:  00 BE 0A E0 0D 78 2D 06 68 40 08 24 40 00 00 D3 ... -- CPU_WriteMem(356 bytes @ 0x20000000)  returns 0x164 (0011ms, 0310ms total)
T17C0 000:482 JLINK_WriteReg(R0, 0x08000000)  returns 0x00 (0000ms, 0310ms total)
T17C0 000:482 JLINK_WriteReg(R1, 0x007A1200)  returns 0x00 (0000ms, 0310ms total)
T17C0 000:482 JLINK_WriteReg(R2, 0x00000002)  returns 0x00 (0000ms, 0310ms total)
T17C0 000:482 JLINK_WriteReg(R3, 0x00000000)  returns 0x00 (0000ms, 0310ms total)
T17C0 000:482 JLINK_WriteReg(R4, 0x00000000)  returns 0x00 (0000ms, 0310ms total)
T17C0 000:482 JLINK_WriteReg(R5, 0x00000000)  returns 0x00 (0000ms, 0310ms total)
T17C0 000:482 JLINK_WriteReg(R6, 0x00000000)  returns 0x00 (0000ms, 0310ms total)
T17C0 000:482 JLINK_WriteReg(R7, 0x00000000)  returns 0x00 (0000ms, 0310ms total)
T17C0 000:482 JLINK_WriteReg(R8, 0x00000000)  returns 0x00 (0000ms, 0310ms total)
T17C0 000:482 JLINK_WriteReg(R9, 0x20000160)  returns 0x00 (0000ms, 0310ms total)
T17C0 000:482 JLINK_WriteReg(R10, 0x00000000)  returns 0x00 (0000ms, 0310ms total)
T17C0 000:482 JLINK_WriteReg(R11, 0x00000000)  returns 0x00 (0000ms, 0310ms total)
T17C0 000:482 JLINK_WriteReg(R12, 0x00000000)  returns 0x00 (0000ms, 0310ms total)
T17C0 000:482 JLINK_WriteReg(R13, 0x20000800)  returns 0x00 (0000ms, 0310ms total)
T17C0 000:482 JLINK_WriteReg(R14, 0x20000001)  returns 0x00 (0000ms, 0310ms total)
T17C0 000:482 JLINK_WriteReg(R15, 0x20000038)  returns 0x00 (0000ms, 0310ms total)
T17C0 000:482 JLINK_WriteReg(XPSR, 0x01000000)  returns 0x00 (0000ms, 0310ms total)
T17C0 000:482 JLINK_WriteReg(MSP, 0x20000800)  returns 0x00 (0000ms, 0310ms total)
T17C0 000:482 JLINK_WriteReg(PSP, 0x20000800)  returns 0x00 (0000ms, 0310ms total)
T17C0 000:482 JLINK_WriteReg(CFBP, 0x00000000)  returns 0x00 (0000ms, 0310ms total)
T17C0 000:482 JLINK_SetBPEx(Addr = 0x20000000, Type = 0xFFFFFFF2) -- CPU_ReadMem(2 bytes @ 0x20000000)  returns 0x00000004 (0002ms, 0312ms total)
T17C0 000:484 JLINK_Go() -- CPU_WriteMem(2 bytes @ 0x20000000) (0005ms, 0317ms total)
T17C0 000:489 JLINK_IsHalted() -- CPU_ReadMem(2 bytes @ 0x20000000)  returns TRUE (0009ms, 0326ms total)
T17C0 000:498 JLINK_ReadReg(R15)  returns 0x20000000 (0000ms, 0317ms total)
T17C0 000:498 JLINK_ClrBPEx(BPHandle = 0x00000004)  returns 0x00 (0000ms, 0317ms total)
T17C0 000:498 JLINK_ReadReg(R0)  returns 0x00000000 (0000ms, 0317ms total)
T17C0 000:498 JLINK_WriteMem(0x20000164, 0x0400 Bytes, ...) -- Data:  F0 14 00 20 45 01 00 08 05 24 00 08 95 23 00 08 ... -- CPU_WriteMem(1024 bytes @ 0x20000164)  returns 0x400 (0028ms, 0345ms total)
T17C0 000:526 JLINK_WriteReg(R0, 0x08000000)  returns 0x00 (0000ms, 0345ms total)
T17C0 000:526 JLINK_WriteReg(R1, 0x00000400)  returns 0x00 (0000ms, 0345ms total)
T17C0 000:526 JLINK_WriteReg(R2, 0x20000164)  returns 0x00 (0000ms, 0345ms total)
T17C0 000:526 JLINK_WriteReg(R3, 0x00000000)  returns 0x00 (0000ms, 0345ms total)
T17C0 000:526 JLINK_WriteReg(R4, 0x00000000)  returns 0x00 (0000ms, 0345ms total)
T17C0 000:526 JLINK_WriteReg(R5, 0x00000000)  returns 0x00 (0000ms, 0345ms total)
T17C0 000:526 JLINK_WriteReg(R6, 0x00000000)  returns 0x00 (0000ms, 0345ms total)
T17C0 000:526 JLINK_WriteReg(R7, 0x00000000)  returns 0x00 (0000ms, 0345ms total)
T17C0 000:526 JLINK_WriteReg(R8, 0x00000000)  returns 0x00 (0000ms, 0345ms total)
T17C0 000:526 JLINK_WriteReg(R9, 0x20000160)  returns 0x00 (0000ms, 0345ms total)
T17C0 000:526 JLINK_WriteReg(R10, 0x00000000)  returns 0x00 (0000ms, 0345ms total)
T17C0 000:526 JLINK_WriteReg(R11, 0x00000000)  returns 0x00 (0000ms, 0345ms total)
T17C0 000:526 JLINK_WriteReg(R12, 0x00000000)  returns 0x00 (0000ms, 0345ms total)
T17C0 000:526 JLINK_WriteReg(R13, 0x20000800)  returns 0x00 (0000ms, 0345ms total)
T17C0 000:526 JLINK_WriteReg(R14, 0x20000001)  returns 0x00 (0000ms, 0345ms total)
T17C0 000:526 JLINK_WriteReg(R15, 0x200000F4)  returns 0x00 (0000ms, 0345ms total)
T17C0 000:526 JLINK_WriteReg(XPSR, 0x01000000)  returns 0x00 (0000ms, 0345ms total)
T17C0 000:526 JLINK_WriteReg(MSP, 0x20000800)  returns 0x00 (0000ms, 0345ms total)
T17C0 000:526 JLINK_WriteReg(PSP, 0x20000800)  returns 0x00 (0000ms, 0345ms total)
T17C0 000:526 JLINK_WriteReg(CFBP, 0x00000000)  returns 0x00 (0000ms, 0345ms total)
T17C0 000:526 JLINK_SetBPEx(Addr = 0x20000000, Type = 0xFFFFFFF2)  returns 0x00000005 (0000ms, 0345ms total)
T17C0 000:526 JLINK_Go() (0005ms, 0350ms total)
T17C0 000:531 JLINK_IsHalted()  returns FALSE (0001ms, 0351ms total)
T17C0 000:614 JLINK_IsHalted() -- CPU_ReadMem(2 bytes @ 0x20000000)  returns TRUE (0009ms, 0359ms total)
T17C0 000:623 JLINK_ReadReg(R15)  returns 0x20000000 (0000ms, 0350ms total)
T17C0 000:623 JLINK_ClrBPEx(BPHandle = 0x00000005)  returns 0x00 (0000ms, 0350ms total)
T17C0 000:623 JLINK_ReadReg(R0)  returns 0x00000000 (0000ms, 0350ms total)
T17C0 000:623 JLINK_WriteMem(0x20000164, 0x0400 Bytes, ...) -- Data:  11 52 84 EA E7 73 1A 43 3B D0 00 9A 3A B3 01 9A ... -- CPU_WriteMem(1024 bytes @ 0x20000164)  returns 0x400 (0028ms, 0378ms total)
T17C0 000:651 JLINK_WriteReg(R0, 0x08000400)  returns 0x00 (0000ms, 0378ms total)
T17C0 000:651 JLINK_WriteReg(R1, 0x00000400)  returns 0x00 (0000ms, 0378ms total)
T17C0 000:651 JLINK_WriteReg(R2, 0x20000164)  returns 0x00 (0000ms, 0378ms total)
T17C0 000:651 JLINK_WriteReg(R3, 0x00000000)  returns 0x00 (0000ms, 0378ms total)
T17C0 000:651 JLINK_WriteReg(R4, 0x00000000)  returns 0x00 (0000ms, 0378ms total)
T17C0 000:651 JLINK_WriteReg(R5, 0x00000000)  returns 0x00 (0000ms, 0378ms total)
T17C0 000:651 JLINK_WriteReg(R6, 0x00000000)  returns 0x00 (0000ms, 0378ms total)
T17C0 000:651 JLINK_WriteReg(R7, 0x00000000)  returns 0x00 (0000ms, 0378ms total)
T17C0 000:651 JLINK_WriteReg(R8, 0x00000000)  returns 0x00 (0000ms, 0378ms total)
T17C0 000:651 JLINK_WriteReg(R9, 0x20000160)  returns 0x00 (0000ms, 0378ms total)
T17C0 000:651 JLINK_WriteReg(R10, 0x00000000)  returns 0x00 (0000ms, 0378ms total)
T17C0 000:651 JLINK_WriteReg(R11, 0x00000000)  returns 0x00 (0000ms, 0378ms total)
T17C0 000:651 JLINK_WriteReg(R12, 0x00000000)  returns 0x00 (0000ms, 0378ms total)
T17C0 000:651 JLINK_WriteReg(R13, 0x20000800)  returns 0x00 (0000ms, 0378ms total)
T17C0 000:651 JLINK_WriteReg(R14, 0x20000001)  returns 0x00 (0000ms, 0378ms total)
T17C0 000:651 JLINK_WriteReg(R15, 0x200000F4)  returns 0x00 (0000ms, 0378ms total)
T17C0 000:651 JLINK_WriteReg(XPSR, 0x01000000)  returns 0x00 (0000ms, 0378ms total)
T17C0 000:651 JLINK_WriteReg(MSP, 0x20000800)  returns 0x00 (0000ms, 0378ms total)
T17C0 000:651 JLINK_WriteReg(PSP, 0x20000800)  returns 0x00 (0000ms, 0378ms total)
T17C0 000:651 JLINK_WriteReg(CFBP, 0x00000000)  returns 0x00 (0000ms, 0378ms total)
T17C0 000:651 JLINK_SetBPEx(Addr = 0x20000000, Type = 0xFFFFFFF2)  returns 0x00000006 (0000ms, 0378ms total)
T17C0 000:651 JLINK_Go() (0005ms, 0383ms total)
T17C0 000:656 JLINK_IsHalted()  returns FALSE (0001ms, 0384ms total)
T17C0 000:714 JLINK_IsHalted() -- CPU_ReadMem(2 bytes @ 0x20000000)  returns TRUE (0009ms, 0392ms total)
T17C0 000:723 JLINK_ReadReg(R15)  returns 0x20000000 (0000ms, 0383ms total)
T17C0 000:723 JLINK_ClrBPEx(BPHandle = 0x00000006)  returns 0x00 (0000ms, 0383ms total)
T17C0 000:723 JLINK_ReadReg(R0)  returns 0x00000000 (0000ms, 0383ms total)
T17C0 000:723 JLINK_WriteMem(0x20000164, 0x0400 Bytes, ...) -- Data:  44 0F 44 EA C1 04 C1 00 E0 18 30 BC 00 EB C2 50 ... -- CPU_WriteMem(1024 bytes @ 0x20000164)  returns 0x400 (0028ms, 0411ms total)
T17C0 000:751 JLINK_WriteReg(R0, 0x08000800)  returns 0x00 (0000ms, 0411ms total)
T17C0 000:751 JLINK_WriteReg(R1, 0x00000400)  returns 0x00 (0000ms, 0411ms total)
T17C0 000:751 JLINK_WriteReg(R2, 0x20000164)  returns 0x00 (0000ms, 0411ms total)
T17C0 000:751 JLINK_WriteReg(R3, 0x00000000)  returns 0x00 (0000ms, 0411ms total)
T17C0 000:751 JLINK_WriteReg(R4, 0x00000000)  returns 0x00 (0000ms, 0411ms total)
T17C0 000:751 JLINK_WriteReg(R5, 0x00000000)  returns 0x00 (0000ms, 0411ms total)
T17C0 000:751 JLINK_WriteReg(R6, 0x00000000)  returns 0x00 (0000ms, 0411ms total)
T17C0 000:751 JLINK_WriteReg(R7, 0x00000000)  returns 0x00 (0000ms, 0411ms total)
T17C0 000:751 JLINK_WriteReg(R8, 0x00000000)  returns 0x00 (0000ms, 0411ms total)
T17C0 000:751 JLINK_WriteReg(R9, 0x20000160)  returns 0x00 (0000ms, 0411ms total)
T17C0 000:751 JLINK_WriteReg(R10, 0x00000000)  returns 0x00 (0000ms, 0411ms total)
T17C0 000:751 JLINK_WriteReg(R11, 0x00000000)  returns 0x00 (0000ms, 0411ms total)
T17C0 000:751 JLINK_WriteReg(R12, 0x00000000)  returns 0x00 (0000ms, 0411ms total)
T17C0 000:751 JLINK_WriteReg(R13, 0x20000800)  returns 0x00 (0000ms, 0411ms total)
T17C0 000:751 JLINK_WriteReg(R14, 0x20000001)  returns 0x00 (0000ms, 0411ms total)
T17C0 000:751 JLINK_WriteReg(R15, 0x200000F4)  returns 0x00 (0000ms, 0411ms total)
T17C0 000:751 JLINK_WriteReg(XPSR, 0x01000000)  returns 0x00 (0000ms, 0411ms total)
T17C0 000:751 JLINK_WriteReg(MSP, 0x20000800)  returns 0x00 (0000ms, 0411ms total)
T17C0 000:751 JLINK_WriteReg(PSP, 0x20000800)  returns 0x00 (0000ms, 0411ms total)
T17C0 000:751 JLINK_WriteReg(CFBP, 0x00000000)  returns 0x00 (0000ms, 0411ms total)
T17C0 000:751 JLINK_SetBPEx(Addr = 0x20000000, Type = 0xFFFFFFF2)  returns 0x00000007 (0000ms, 0411ms total)
T17C0 000:751 JLINK_Go() (0005ms, 0416ms total)
T17C0 000:756 JLINK_IsHalted()  returns FALSE (0001ms, 0417ms total)
T17C0 000:760 JLINK_IsHalted()  returns FALSE (0001ms, 0417ms total)
T17C0 000:762 JLINK_IsHalted()  returns FALSE (0001ms, 0417ms total)
T17C0 000:764 JLINK_IsHalted()  returns FALSE (0001ms, 0417ms total)
T17C0 000:766 JLINK_IsHalted()  returns FALSE (0001ms, 0417ms total)
T17C0 000:770 JLINK_IsHalted()  returns FALSE (0001ms, 0417ms total)
T17C0 000:772 JLINK_IsHalted()  returns FALSE (0001ms, 0417ms total)
T17C0 000:774 JLINK_IsHalted()  returns FALSE (0001ms, 0417ms total)
T17C0 000:776 JLINK_IsHalted()  returns FALSE (0001ms, 0417ms total)
T17C0 000:778 JLINK_IsHalted()  returns FALSE (0001ms, 0417ms total)
T17C0 000:813 JLINK_IsHalted() -- CPU_ReadMem(2 bytes @ 0x20000000)  returns TRUE (0009ms, 0425ms total)
T17C0 000:822 JLINK_ReadReg(R15)  returns 0x20000000 (0000ms, 0416ms total)
T17C0 000:822 JLINK_ClrBPEx(BPHandle = 0x00000007)  returns 0x00 (0000ms, 0416ms total)
T17C0 000:822 JLINK_ReadReg(R0)  returns 0x00000000 (0000ms, 0416ms total)
T17C0 000:822 JLINK_WriteMem(0x20000164, 0x0400 Bytes, ...) -- Data:  06 F1 08 43 E0 62 F0 BD 81 68 41 F0 08 01 81 60 ... -- CPU_WriteMem(1024 bytes @ 0x20000164)  returns 0x400 (0028ms, 0444ms total)
T17C0 000:850 JLINK_WriteReg(R0, 0x08000C00)  returns 0x00 (0000ms, 0444ms total)
T17C0 000:850 JLINK_WriteReg(R1, 0x00000400)  returns 0x00 (0000ms, 0444ms total)
T17C0 000:850 JLINK_WriteReg(R2, 0x20000164)  returns 0x00 (0000ms, 0444ms total)
T17C0 000:850 JLINK_WriteReg(R3, 0x00000000)  returns 0x00 (0000ms, 0444ms total)
T17C0 000:850 JLINK_WriteReg(R4, 0x00000000)  returns 0x00 (0000ms, 0444ms total)
T17C0 000:850 JLINK_WriteReg(R5, 0x00000000)  returns 0x00 (0000ms, 0444ms total)
T17C0 000:850 JLINK_WriteReg(R6, 0x00000000)  returns 0x00 (0000ms, 0444ms total)
T17C0 000:850 JLINK_WriteReg(R7, 0x00000000)  returns 0x00 (0000ms, 0444ms total)
T17C0 000:850 JLINK_WriteReg(R8, 0x00000000)  returns 0x00 (0000ms, 0444ms total)
T17C0 000:850 JLINK_WriteReg(R9, 0x20000160)  returns 0x00 (0000ms, 0444ms total)
T17C0 000:850 JLINK_WriteReg(R10, 0x00000000)  returns 0x00 (0000ms, 0444ms total)
T17C0 000:850 JLINK_WriteReg(R11, 0x00000000)  returns 0x00 (0000ms, 0444ms total)
T17C0 000:850 JLINK_WriteReg(R12, 0x00000000)  returns 0x00 (0000ms, 0444ms total)
T17C0 000:850 JLINK_WriteReg(R13, 0x20000800)  returns 0x00 (0000ms, 0444ms total)
T17C0 000:850 JLINK_WriteReg(R14, 0x20000001)  returns 0x00 (0000ms, 0444ms total)
T17C0 000:850 JLINK_WriteReg(R15, 0x200000F4)  returns 0x00 (0000ms, 0444ms total)
T17C0 000:850 JLINK_WriteReg(XPSR, 0x01000000)  returns 0x00 (0000ms, 0444ms total)
T17C0 000:850 JLINK_WriteReg(MSP, 0x20000800)  returns 0x00 (0000ms, 0444ms total)
T17C0 000:850 JLINK_WriteReg(PSP, 0x20000800)  returns 0x00 (0000ms, 0444ms total)
T17C0 000:850 JLINK_WriteReg(CFBP, 0x00000000)  returns 0x00 (0000ms, 0444ms total)
T17C0 000:850 JLINK_SetBPEx(Addr = 0x20000000, Type = 0xFFFFFFF2)  returns 0x00000008 (0000ms, 0444ms total)
T17C0 000:850 JLINK_Go() (0005ms, 0449ms total)
T17C0 000:855 JLINK_IsHalted()  returns FALSE (0001ms, 0450ms total)
T17C0 000:861 JLINK_IsHalted()  returns FALSE (0001ms, 0450ms total)
T17C0 000:863 JLINK_IsHalted()  returns FALSE (0001ms, 0450ms total)
T17C0 000:865 JLINK_IsHalted()  returns FALSE (0001ms, 0450ms total)
T17C0 000:867 JLINK_IsHalted()  returns FALSE (0001ms, 0450ms total)
T17C0 000:869 JLINK_IsHalted()  returns FALSE (0001ms, 0450ms total)
T17C0 000:873 JLINK_IsHalted()  returns FALSE (0001ms, 0450ms total)
T17C0 000:875 JLINK_IsHalted()  returns FALSE (0001ms, 0450ms total)
T17C0 000:877 JLINK_IsHalted()  returns FALSE (0001ms, 0450ms total)
T17C0 000:879 JLINK_IsHalted()  returns FALSE (0001ms, 0450ms total)
T17C0 000:881 JLINK_IsHalted()  returns FALSE (0001ms, 0450ms total)
T17C0 000:883 JLINK_IsHalted()  returns FALSE (0001ms, 0450ms total)
T17C0 000:885 JLINK_IsHalted() -- CPU_ReadMem(2 bytes @ 0x20000000)  returns TRUE (0009ms, 0458ms total)
T17C0 000:894 JLINK_ReadReg(R15)  returns 0x20000000 (0000ms, 0449ms total)
T17C0 000:894 JLINK_ClrBPEx(BPHandle = 0x00000008)  returns 0x00 (0000ms, 0449ms total)
T17C0 000:894 JLINK_ReadReg(R0)  returns 0x00000000 (0000ms, 0449ms total)
T17C0 000:894 JLINK_WriteMem(0x20000164, 0x0400 Bytes, ...) -- Data:  77 FB 28 48 3E 38 D0 F8 3A 60 30 46 FF F7 AA FB ... -- CPU_WriteMem(1024 bytes @ 0x20000164)  returns 0x400 (0028ms, 0477ms total)
T17C0 000:922 JLINK_WriteReg(R0, 0x08001000)  returns 0x00 (0000ms, 0477ms total)
T17C0 000:922 JLINK_WriteReg(R1, 0x00000400)  returns 0x00 (0000ms, 0477ms total)
T17C0 000:922 JLINK_WriteReg(R2, 0x20000164)  returns 0x00 (0000ms, 0477ms total)
T17C0 000:922 JLINK_WriteReg(R3, 0x00000000)  returns 0x00 (0000ms, 0477ms total)
T17C0 000:922 JLINK_WriteReg(R4, 0x00000000)  returns 0x00 (0000ms, 0477ms total)
T17C0 000:922 JLINK_WriteReg(R5, 0x00000000)  returns 0x00 (0000ms, 0477ms total)
T17C0 000:922 JLINK_WriteReg(R6, 0x00000000)  returns 0x00 (0000ms, 0477ms total)
T17C0 000:922 JLINK_WriteReg(R7, 0x00000000)  returns 0x00 (0000ms, 0477ms total)
T17C0 000:922 JLINK_WriteReg(R8, 0x00000000)  returns 0x00 (0000ms, 0477ms total)
T17C0 000:922 JLINK_WriteReg(R9, 0x20000160)  returns 0x00 (0000ms, 0477ms total)
T17C0 000:922 JLINK_WriteReg(R10, 0x00000000)  returns 0x00 (0000ms, 0477ms total)
T17C0 000:922 JLINK_WriteReg(R11, 0x00000000)  returns 0x00 (0000ms, 0477ms total)
T17C0 000:922 JLINK_WriteReg(R12, 0x00000000)  returns 0x00 (0000ms, 0477ms total)
T17C0 000:922 JLINK_WriteReg(R13, 0x20000800)  returns 0x00 (0000ms, 0477ms total)
T17C0 000:922 JLINK_WriteReg(R14, 0x20000001)  returns 0x00 (0000ms, 0477ms total)
T17C0 000:922 JLINK_WriteReg(R15, 0x200000F4)  returns 0x00 (0000ms, 0477ms total)
T17C0 000:922 JLINK_WriteReg(XPSR, 0x01000000)  returns 0x00 (0000ms, 0477ms total)
T17C0 000:922 JLINK_WriteReg(MSP, 0x20000800)  returns 0x00 (0000ms, 0477ms total)
T17C0 000:922 JLINK_WriteReg(PSP, 0x20000800)  returns 0x00 (0000ms, 0477ms total)
T17C0 000:922 JLINK_WriteReg(CFBP, 0x00000000)  returns 0x00 (0000ms, 0477ms total)
T17C0 000:922 JLINK_SetBPEx(Addr = 0x20000000, Type = 0xFFFFFFF2)  returns 0x00000009 (0000ms, 0477ms total)
T17C0 000:922 JLINK_Go() (0005ms, 0482ms total)
T17C0 000:927 JLINK_IsHalted()  returns FALSE (0001ms, 0483ms total)
T17C0 000:961 JLINK_IsHalted() -- CPU_ReadMem(2 bytes @ 0x20000000)  returns TRUE (0009ms, 0491ms total)
T17C0 000:970 JLINK_ReadReg(R15)  returns 0x20000000 (0000ms, 0482ms total)
T17C0 000:970 JLINK_ClrBPEx(BPHandle = 0x00000009)  returns 0x00 (0000ms, 0482ms total)
T17C0 000:970 JLINK_ReadReg(R0)  returns 0x00000000 (0000ms, 0482ms total)
T17C0 000:970 JLINK_WriteMem(0x20000164, 0x0400 Bytes, ...) -- Data:  23 43 4C 6A 23 43 8C 6A 23 43 1A 43 02 60 CB 68 ... -- CPU_WriteMem(1024 bytes @ 0x20000164)  returns 0x400 (0028ms, 0510ms total)
T17C0 000:998 JLINK_WriteReg(R0, 0x08001400)  returns 0x00 (0000ms, 0510ms total)
T17C0 000:998 JLINK_WriteReg(R1, 0x00000400)  returns 0x00 (0000ms, 0510ms total)
T17C0 000:998 JLINK_WriteReg(R2, 0x20000164)  returns 0x00 (0000ms, 0510ms total)
T17C0 000:998 JLINK_WriteReg(R3, 0x00000000)  returns 0x00 (0000ms, 0510ms total)
T17C0 000:998 JLINK_WriteReg(R4, 0x00000000)  returns 0x00 (0000ms, 0510ms total)
T17C0 000:998 JLINK_WriteReg(R5, 0x00000000)  returns 0x00 (0000ms, 0510ms total)
T17C0 000:998 JLINK_WriteReg(R6, 0x00000000)  returns 0x00 (0000ms, 0510ms total)
T17C0 000:998 JLINK_WriteReg(R7, 0x00000000)  returns 0x00 (0000ms, 0510ms total)
T17C0 000:998 JLINK_WriteReg(R8, 0x00000000)  returns 0x00 (0000ms, 0510ms total)
T17C0 000:998 JLINK_WriteReg(R9, 0x20000160)  returns 0x00 (0000ms, 0510ms total)
T17C0 000:998 JLINK_WriteReg(R10, 0x00000000)  returns 0x00 (0000ms, 0510ms total)
T17C0 000:998 JLINK_WriteReg(R11, 0x00000000)  returns 0x00 (0000ms, 0510ms total)
T17C0 000:998 JLINK_WriteReg(R12, 0x00000000)  returns 0x00 (0000ms, 0510ms total)
T17C0 000:998 JLINK_WriteReg(R13, 0x20000800)  returns 0x00 (0000ms, 0510ms total)
T17C0 000:998 JLINK_WriteReg(R14, 0x20000001)  returns 0x00 (0000ms, 0510ms total)
T17C0 000:998 JLINK_WriteReg(R15, 0x200000F4)  returns 0x00 (0000ms, 0510ms total)
T17C0 000:998 JLINK_WriteReg(XPSR, 0x01000000)  returns 0x00 (0000ms, 0510ms total)
T17C0 000:998 JLINK_WriteReg(MSP, 0x20000800)  returns 0x00 (0000ms, 0510ms total)
T17C0 000:998 JLINK_WriteReg(PSP, 0x20000800)  returns 0x00 (0000ms, 0510ms total)
T17C0 000:998 JLINK_WriteReg(CFBP, 0x00000000)  returns 0x00 (0000ms, 0510ms total)
T17C0 000:998 JLINK_SetBPEx(Addr = 0x20000000, Type = 0xFFFFFFF2)  returns 0x0000000A (0000ms, 0510ms total)
T17C0 000:998 JLINK_Go() (0005ms, 0515ms total)
T17C0 001:003 JLINK_IsHalted()  returns FALSE (0002ms, 0517ms total)
T17C0 001:046 JLINK_IsHalted() -- CPU_ReadMem(2 bytes @ 0x20000000)  returns TRUE (0009ms, 0524ms total)
T17C0 001:055 JLINK_ReadReg(R15)  returns 0x20000000 (0000ms, 0515ms total)
T17C0 001:055 JLINK_ClrBPEx(BPHandle = 0x0000000A)  returns 0x00 (0000ms, 0515ms total)
T17C0 001:055 JLINK_ReadReg(R0)  returns 0x00000000 (0000ms, 0515ms total)
T17C0 001:055 JLINK_WriteMem(0x20000164, 0x0400 Bytes, ...) -- Data:  4F F0 E0 20 00 69 40 F0 01 00 4F F0 E0 21 08 61 ... -- CPU_WriteMem(1024 bytes @ 0x20000164)  returns 0x400 (0032ms, 0547ms total)
T17C0 001:087 JLINK_WriteReg(R0, 0x08001800)  returns 0x00 (0000ms, 0547ms total)
T17C0 001:087 JLINK_WriteReg(R1, 0x00000400)  returns 0x00 (0000ms, 0547ms total)
T17C0 001:087 JLINK_WriteReg(R2, 0x20000164)  returns 0x00 (0000ms, 0547ms total)
T17C0 001:087 JLINK_WriteReg(R3, 0x00000000)  returns 0x00 (0000ms, 0547ms total)
T17C0 001:087 JLINK_WriteReg(R4, 0x00000000)  returns 0x00 (0000ms, 0547ms total)
T17C0 001:087 JLINK_WriteReg(R5, 0x00000000)  returns 0x00 (0000ms, 0547ms total)
T17C0 001:087 JLINK_WriteReg(R6, 0x00000000)  returns 0x00 (0000ms, 0547ms total)
T17C0 001:088 JLINK_WriteReg(R7, 0x00000000)  returns 0x00 (0000ms, 0548ms total)
T17C0 001:088 JLINK_WriteReg(R8, 0x00000000)  returns 0x00 (0000ms, 0548ms total)
T17C0 001:088 JLINK_WriteReg(R9, 0x20000160)  returns 0x00 (0000ms, 0548ms total)
T17C0 001:088 JLINK_WriteReg(R10, 0x00000000)  returns 0x00 (0000ms, 0548ms total)
T17C0 001:088 JLINK_WriteReg(R11, 0x00000000)  returns 0x00 (0000ms, 0548ms total)
T17C0 001:088 JLINK_WriteReg(R12, 0x00000000)  returns 0x00 (0000ms, 0548ms total)
T17C0 001:088 JLINK_WriteReg(R13, 0x20000800)  returns 0x00 (0000ms, 0548ms total)
T17C0 001:088 JLINK_WriteReg(R14, 0x20000001)  returns 0x00 (0000ms, 0548ms total)
T17C0 001:088 JLINK_WriteReg(R15, 0x200000F4)  returns 0x00 (0000ms, 0548ms total)
T17C0 001:088 JLINK_WriteReg(XPSR, 0x01000000)  returns 0x00 (0000ms, 0548ms total)
T17C0 001:088 JLINK_WriteReg(MSP, 0x20000800)  returns 0x00 (0000ms, 0548ms total)
T17C0 001:088 JLINK_WriteReg(PSP, 0x20000800)  returns 0x00 (0000ms, 0548ms total)
T17C0 001:088 JLINK_WriteReg(CFBP, 0x00000000)  returns 0x00 (0000ms, 0548ms total)
T17C0 001:088 JLINK_SetBPEx(Addr = 0x20000000, Type = 0xFFFFFFF2)  returns 0x0000000B (0000ms, 0548ms total)
T17C0 001:088 JLINK_Go() (0004ms, 0552ms total)
T17C0 001:092 JLINK_IsHalted()  returns FALSE (0001ms, 0553ms total)
T17C0 001:100 JLINK_IsHalted()  returns FALSE (0001ms, 0553ms total)
T17C0 001:102 JLINK_IsHalted()  returns FALSE (0001ms, 0553ms total)
T17C0 001:104 JLINK_IsHalted()  returns FALSE (0001ms, 0553ms total)
T17C0 001:109 JLINK_IsHalted()  returns FALSE (0001ms, 0553ms total)
T17C0 001:158 JLINK_IsHalted() -- CPU_ReadMem(2 bytes @ 0x20000000)  returns TRUE (0009ms, 0561ms total)
T17C0 001:167 JLINK_ReadReg(R15)  returns 0x20000000 (0000ms, 0552ms total)
T17C0 001:167 JLINK_ClrBPEx(BPHandle = 0x0000000B)  returns 0x00 (0000ms, 0552ms total)
T17C0 001:167 JLINK_ReadReg(R0)  returns 0x00000000 (0000ms, 0552ms total)
T17C0 001:167 JLINK_WriteMem(0x20000164, 0x0400 Bytes, ...) -- Data:  00 26 00 20 00 23 00 24 00 27 91 F8 03 C0 0C F0 ... -- CPU_WriteMem(1024 bytes @ 0x20000164)  returns 0x400 (0028ms, 0580ms total)
T17C0 001:195 JLINK_WriteReg(R0, 0x08001C00)  returns 0x00 (0000ms, 0580ms total)
T17C0 001:195 JLINK_WriteReg(R1, 0x00000400)  returns 0x00 (0000ms, 0580ms total)
T17C0 001:195 JLINK_WriteReg(R2, 0x20000164)  returns 0x00 (0000ms, 0580ms total)
T17C0 001:195 JLINK_WriteReg(R3, 0x00000000)  returns 0x00 (0000ms, 0580ms total)
T17C0 001:195 JLINK_WriteReg(R4, 0x00000000)  returns 0x00 (0000ms, 0580ms total)
T17C0 001:195 JLINK_WriteReg(R5, 0x00000000)  returns 0x00 (0000ms, 0580ms total)
T17C0 001:195 JLINK_WriteReg(R6, 0x00000000)  returns 0x00 (0000ms, 0580ms total)
T17C0 001:195 JLINK_WriteReg(R7, 0x00000000)  returns 0x00 (0000ms, 0580ms total)
T17C0 001:195 JLINK_WriteReg(R8, 0x00000000)  returns 0x00 (0000ms, 0580ms total)
T17C0 001:195 JLINK_WriteReg(R9, 0x20000160)  returns 0x00 (0000ms, 0580ms total)
T17C0 001:195 JLINK_WriteReg(R10, 0x00000000)  returns 0x00 (0000ms, 0580ms total)
T17C0 001:195 JLINK_WriteReg(R11, 0x00000000)  returns 0x00 (0000ms, 0580ms total)
T17C0 001:195 JLINK_WriteReg(R12, 0x00000000)  returns 0x00 (0000ms, 0580ms total)
T17C0 001:195 JLINK_WriteReg(R13, 0x20000800)  returns 0x00 (0000ms, 0580ms total)
T17C0 001:195 JLINK_WriteReg(R14, 0x20000001)  returns 0x00 (0000ms, 0580ms total)
T17C0 001:195 JLINK_WriteReg(R15, 0x200000F4)  returns 0x00 (0000ms, 0580ms total)
T17C0 001:195 JLINK_WriteReg(XPSR, 0x01000000)  returns 0x00 (0000ms, 0580ms total)
T17C0 001:195 JLINK_WriteReg(MSP, 0x20000800)  returns 0x00 (0000ms, 0580ms total)
T17C0 001:195 JLINK_WriteReg(PSP, 0x20000800)  returns 0x00 (0000ms, 0580ms total)
T17C0 001:195 JLINK_WriteReg(CFBP, 0x00000000)  returns 0x00 (0000ms, 0580ms total)
T17C0 001:195 JLINK_SetBPEx(Addr = 0x20000000, Type = 0xFFFFFFF2)  returns 0x0000000C (0000ms, 0580ms total)
T17C0 001:195 JLINK_Go() (0005ms, 0585ms total)
T17C0 001:200 JLINK_IsHalted()  returns FALSE (0001ms, 0586ms total)
T17C0 001:207 JLINK_IsHalted()  returns FALSE (0001ms, 0586ms total)
T17C0 001:209 JLINK_IsHalted()  returns FALSE (0001ms, 0586ms total)
T17C0 001:211 JLINK_IsHalted()  returns FALSE (0001ms, 0586ms total)
T17C0 001:213 JLINK_IsHalted()  returns FALSE (0001ms, 0586ms total)
T17C0 001:215 JLINK_IsHalted()  returns FALSE (0001ms, 0586ms total)
T17C0 001:253 JLINK_IsHalted() -- CPU_ReadMem(2 bytes @ 0x20000000)  returns TRUE (0009ms, 0594ms total)
T17C0 001:262 JLINK_ReadReg(R15)  returns 0x20000000 (0000ms, 0585ms total)
T17C0 001:262 JLINK_ClrBPEx(BPHandle = 0x0000000C)  returns 0x00 (0000ms, 0585ms total)
T17C0 001:262 JLINK_ReadReg(R0)  returns 0x00000000 (0000ms, 0585ms total)
T17C0 001:262 JLINK_WriteMem(0x20000164, 0x0400 Bytes, ...) -- Data:  AF AF 00 00 AF 00 0C 03 C0 C6 2D 00 30 00 00 20 ... -- CPU_WriteMem(1024 bytes @ 0x20000164)  returns 0x400 (0028ms, 0613ms total)
T17C0 001:290 JLINK_WriteReg(R0, 0x08002000)  returns 0x00 (0000ms, 0613ms total)
T17C0 001:290 JLINK_WriteReg(R1, 0x00000400)  returns 0x00 (0000ms, 0613ms total)
T17C0 001:290 JLINK_WriteReg(R2, 0x20000164)  returns 0x00 (0000ms, 0613ms total)
T17C0 001:290 JLINK_WriteReg(R3, 0x00000000)  returns 0x00 (0000ms, 0613ms total)
T17C0 001:290 JLINK_WriteReg(R4, 0x00000000)  returns 0x00 (0000ms, 0613ms total)
T17C0 001:290 JLINK_WriteReg(R5, 0x00000000)  returns 0x00 (0000ms, 0613ms total)
T17C0 001:290 JLINK_WriteReg(R6, 0x00000000)  returns 0x00 (0000ms, 0613ms total)
T17C0 001:290 JLINK_WriteReg(R7, 0x00000000)  returns 0x00 (0000ms, 0613ms total)
T17C0 001:290 JLINK_WriteReg(R8, 0x00000000)  returns 0x00 (0000ms, 0613ms total)
T17C0 001:290 JLINK_WriteReg(R9, 0x20000160)  returns 0x00 (0000ms, 0613ms total)
T17C0 001:290 JLINK_WriteReg(R10, 0x00000000)  returns 0x00 (0000ms, 0613ms total)
T17C0 001:290 JLINK_WriteReg(R11, 0x00000000)  returns 0x00 (0000ms, 0613ms total)
T17C0 001:290 JLINK_WriteReg(R12, 0x00000000)  returns 0x00 (0000ms, 0613ms total)
T17C0 001:290 JLINK_WriteReg(R13, 0x20000800)  returns 0x00 (0000ms, 0613ms total)
T17C0 001:290 JLINK_WriteReg(R14, 0x20000001)  returns 0x00 (0000ms, 0613ms total)
T17C0 001:290 JLINK_WriteReg(R15, 0x200000F4)  returns 0x00 (0000ms, 0613ms total)
T17C0 001:290 JLINK_WriteReg(XPSR, 0x01000000)  returns 0x00 (0000ms, 0613ms total)
T17C0 001:290 JLINK_WriteReg(MSP, 0x20000800)  returns 0x00 (0000ms, 0613ms total)
T17C0 001:290 JLINK_WriteReg(PSP, 0x20000800)  returns 0x00 (0000ms, 0613ms total)
T17C0 001:290 JLINK_WriteReg(CFBP, 0x00000000)  returns 0x00 (0000ms, 0613ms total)
T17C0 001:290 JLINK_SetBPEx(Addr = 0x20000000, Type = 0xFFFFFFF2)  returns 0x0000000D (0000ms, 0613ms total)
T17C0 001:290 JLINK_Go() (0005ms, 0618ms total)
T17C0 001:295 JLINK_IsHalted()  returns FALSE (0001ms, 0619ms total)
T17C0 001:301 JLINK_IsHalted()  returns FALSE (0001ms, 0619ms total)
T17C0 001:303 JLINK_IsHalted()  returns FALSE (0001ms, 0619ms total)
T17C0 001:305 JLINK_IsHalted()  returns FALSE (0001ms, 0619ms total)
T17C0 001:307 JLINK_IsHalted()  returns FALSE (0001ms, 0619ms total)
T17C0 001:311 JLINK_IsHalted()  returns FALSE (0001ms, 0619ms total)
T17C0 001:313 JLINK_IsHalted()  returns FALSE (0001ms, 0619ms total)
T17C0 001:315 JLINK_IsHalted()  returns FALSE (0001ms, 0619ms total)
T17C0 001:317 JLINK_IsHalted()  returns FALSE (0001ms, 0619ms total)
T17C0 001:319 JLINK_IsHalted()  returns FALSE (0001ms, 0619ms total)
T17C0 001:321 JLINK_IsHalted()  returns FALSE (0001ms, 0619ms total)
T17C0 001:323 JLINK_IsHalted()  returns FALSE (0001ms, 0619ms total)
T17C0 001:325 JLINK_IsHalted() -- CPU_ReadMem(2 bytes @ 0x20000000)  returns TRUE (0009ms, 0627ms total)
T17C0 001:334 JLINK_ReadReg(R15)  returns 0x20000000 (0000ms, 0618ms total)
T17C0 001:334 JLINK_ClrBPEx(BPHandle = 0x0000000D)  returns 0x00 (0000ms, 0618ms total)
T17C0 001:334 JLINK_ReadReg(R0)  returns 0x00000000 (0000ms, 0618ms total)
T17C0 001:334 JLINK_WriteMem(0x20000164, 0x0400 Bytes, ...) -- Data:  00 00 00 00 10 B5 02 A0 03 F0 A0 FA 10 BD 00 00 ... -- CPU_WriteMem(1024 bytes @ 0x20000164)  returns 0x400 (0028ms, 0646ms total)
T17C0 001:362 JLINK_WriteReg(R0, 0x08002400)  returns 0x00 (0000ms, 0646ms total)
T17C0 001:362 JLINK_WriteReg(R1, 0x00000400)  returns 0x00 (0000ms, 0646ms total)
T17C0 001:362 JLINK_WriteReg(R2, 0x20000164)  returns 0x00 (0000ms, 0646ms total)
T17C0 001:362 JLINK_WriteReg(R3, 0x00000000)  returns 0x00 (0000ms, 0646ms total)
T17C0 001:362 JLINK_WriteReg(R4, 0x00000000)  returns 0x00 (0000ms, 0646ms total)
T17C0 001:362 JLINK_WriteReg(R5, 0x00000000)  returns 0x00 (0000ms, 0646ms total)
T17C0 001:362 JLINK_WriteReg(R6, 0x00000000)  returns 0x00 (0000ms, 0646ms total)
T17C0 001:362 JLINK_WriteReg(R7, 0x00000000)  returns 0x00 (0000ms, 0646ms total)
T17C0 001:362 JLINK_WriteReg(R8, 0x00000000)  returns 0x00 (0000ms, 0646ms total)
T17C0 001:362 JLINK_WriteReg(R9, 0x20000160)  returns 0x00 (0000ms, 0646ms total)
T17C0 001:362 JLINK_WriteReg(R10, 0x00000000)  returns 0x00 (0000ms, 0646ms total)
T17C0 001:362 JLINK_WriteReg(R11, 0x00000000)  returns 0x00 (0000ms, 0646ms total)
T17C0 001:362 JLINK_WriteReg(R12, 0x00000000)  returns 0x00 (0000ms, 0646ms total)
T17C0 001:362 JLINK_WriteReg(R13, 0x20000800)  returns 0x00 (0000ms, 0646ms total)
T17C0 001:362 JLINK_WriteReg(R14, 0x20000001)  returns 0x00 (0000ms, 0646ms total)
T17C0 001:362 JLINK_WriteReg(R15, 0x200000F4)  returns 0x00 (0000ms, 0646ms total)
T17C0 001:362 JLINK_WriteReg(XPSR, 0x01000000)  returns 0x00 (0000ms, 0646ms total)
T17C0 001:362 JLINK_WriteReg(MSP, 0x20000800)  returns 0x00 (0000ms, 0646ms total)
T17C0 001:362 JLINK_WriteReg(PSP, 0x20000800)  returns 0x00 (0000ms, 0646ms total)
T17C0 001:362 JLINK_WriteReg(CFBP, 0x00000000)  returns 0x00 (0000ms, 0646ms total)
T17C0 001:362 JLINK_SetBPEx(Addr = 0x20000000, Type = 0xFFFFFFF2)  returns 0x0000000E (0000ms, 0646ms total)
T17C0 001:362 JLINK_Go() (0005ms, 0651ms total)
T17C0 001:367 JLINK_IsHalted()  returns FALSE (0001ms, 0652ms total)
T17C0 001:403 JLINK_IsHalted() -- CPU_ReadMem(2 bytes @ 0x20000000)  returns TRUE (0009ms, 0660ms total)
T17C0 001:412 JLINK_ReadReg(R15)  returns 0x20000000 (0000ms, 0651ms total)
T17C0 001:412 JLINK_ClrBPEx(BPHandle = 0x0000000E)  returns 0x00 (0000ms, 0651ms total)
T17C0 001:412 JLINK_ReadReg(R0)  returns 0x00000000 (0000ms, 0651ms total)
T17C0 001:412 JLINK_WriteMem(0x20000164, 0x0400 Bytes, ...) -- Data:  EB FD 02 F0 91 FE 02 F0 ED FC 02 F0 2F FE 00 F0 ... -- CPU_WriteMem(1024 bytes @ 0x20000164)  returns 0x400 (0028ms, 0679ms total)
T17C0 001:440 JLINK_WriteReg(R0, 0x08002800)  returns 0x00 (0000ms, 0679ms total)
T17C0 001:440 JLINK_WriteReg(R1, 0x00000400)  returns 0x00 (0000ms, 0679ms total)
T17C0 001:440 JLINK_WriteReg(R2, 0x20000164)  returns 0x00 (0000ms, 0679ms total)
T17C0 001:440 JLINK_WriteReg(R3, 0x00000000)  returns 0x00 (0000ms, 0679ms total)
T17C0 001:440 JLINK_WriteReg(R4, 0x00000000)  returns 0x00 (0000ms, 0679ms total)
T17C0 001:440 JLINK_WriteReg(R5, 0x00000000)  returns 0x00 (0000ms, 0679ms total)
T17C0 001:440 JLINK_WriteReg(R6, 0x00000000)  returns 0x00 (0000ms, 0679ms total)
T17C0 001:440 JLINK_WriteReg(R7, 0x00000000)  returns 0x00 (0000ms, 0679ms total)
T17C0 001:440 JLINK_WriteReg(R8, 0x00000000)  returns 0x00 (0000ms, 0679ms total)
T17C0 001:440 JLINK_WriteReg(R9, 0x20000160)  returns 0x00 (0000ms, 0679ms total)
T17C0 001:440 JLINK_WriteReg(R10, 0x00000000)  returns 0x00 (0000ms, 0679ms total)
T17C0 001:440 JLINK_WriteReg(R11, 0x00000000)  returns 0x00 (0000ms, 0679ms total)
T17C0 001:440 JLINK_WriteReg(R12, 0x00000000)  returns 0x00 (0000ms, 0679ms total)
T17C0 001:440 JLINK_WriteReg(R13, 0x20000800)  returns 0x00 (0000ms, 0679ms total)
T17C0 001:440 JLINK_WriteReg(R14, 0x20000001)  returns 0x00 (0000ms, 0679ms total)
T17C0 001:440 JLINK_WriteReg(R15, 0x200000F4)  returns 0x00 (0000ms, 0679ms total)
T17C0 001:440 JLINK_WriteReg(XPSR, 0x01000000)  returns 0x00 (0000ms, 0679ms total)
T17C0 001:440 JLINK_WriteReg(MSP, 0x20000800)  returns 0x00 (0000ms, 0679ms total)
T17C0 001:440 JLINK_WriteReg(PSP, 0x20000800)  returns 0x00 (0000ms, 0679ms total)
T17C0 001:440 JLINK_WriteReg(CFBP, 0x00000000)  returns 0x00 (0000ms, 0679ms total)
T17C0 001:440 JLINK_SetBPEx(Addr = 0x20000000, Type = 0xFFFFFFF2)  returns 0x0000000F (0000ms, 0679ms total)
T17C0 001:440 JLINK_Go() (0005ms, 0684ms total)
T17C0 001:445 JLINK_IsHalted()  returns FALSE (0001ms, 0685ms total)
T17C0 001:488 JLINK_IsHalted() -- CPU_ReadMem(2 bytes @ 0x20000000)  returns TRUE (0009ms, 0693ms total)
T17C0 001:497 JLINK_ReadReg(R15)  returns 0x20000000 (0000ms, 0684ms total)
T17C0 001:497 JLINK_ClrBPEx(BPHandle = 0x0000000F)  returns 0x00 (0000ms, 0684ms total)
T17C0 001:497 JLINK_ReadReg(R0)  returns 0x00000000 (0000ms, 0684ms total)
T17C0 001:497 JLINK_WriteMem(0x20000164, 0x0400 Bytes, ...) -- Data:  03 48 00 88 40 F0 10 00 01 49 08 80 70 47 00 00 ... -- CPU_WriteMem(1024 bytes @ 0x20000164)  returns 0x400 (0028ms, 0712ms total)
T17C0 001:525 JLINK_WriteReg(R0, 0x08002C00)  returns 0x00 (0000ms, 0712ms total)
T17C0 001:525 JLINK_WriteReg(R1, 0x00000400)  returns 0x00 (0000ms, 0712ms total)
T17C0 001:525 JLINK_WriteReg(R2, 0x20000164)  returns 0x00 (0000ms, 0712ms total)
T17C0 001:525 JLINK_WriteReg(R3, 0x00000000)  returns 0x00 (0000ms, 0712ms total)
T17C0 001:525 JLINK_WriteReg(R4, 0x00000000)  returns 0x00 (0000ms, 0712ms total)
T17C0 001:525 JLINK_WriteReg(R5, 0x00000000)  returns 0x00 (0000ms, 0712ms total)
T17C0 001:525 JLINK_WriteReg(R6, 0x00000000)  returns 0x00 (0000ms, 0712ms total)
T17C0 001:525 JLINK_WriteReg(R7, 0x00000000)  returns 0x00 (0000ms, 0712ms total)
T17C0 001:525 JLINK_WriteReg(R8, 0x00000000)  returns 0x00 (0000ms, 0712ms total)
T17C0 001:525 JLINK_WriteReg(R9, 0x20000160)  returns 0x00 (0000ms, 0712ms total)
T17C0 001:525 JLINK_WriteReg(R10, 0x00000000)  returns 0x00 (0000ms, 0712ms total)
T17C0 001:525 JLINK_WriteReg(R11, 0x00000000)  returns 0x00 (0000ms, 0712ms total)
T17C0 001:525 JLINK_WriteReg(R12, 0x00000000)  returns 0x00 (0000ms, 0712ms total)
T17C0 001:525 JLINK_WriteReg(R13, 0x20000800)  returns 0x00 (0000ms, 0712ms total)
T17C0 001:525 JLINK_WriteReg(R14, 0x20000001)  returns 0x00 (0000ms, 0712ms total)
T17C0 001:525 JLINK_WriteReg(R15, 0x200000F4)  returns 0x00 (0000ms, 0712ms total)
T17C0 001:525 JLINK_WriteReg(XPSR, 0x01000000)  returns 0x00 (0000ms, 0712ms total)
T17C0 001:525 JLINK_WriteReg(MSP, 0x20000800)  returns 0x00 (0000ms, 0712ms total)
T17C0 001:525 JLINK_WriteReg(PSP, 0x20000800)  returns 0x00 (0000ms, 0712ms total)
T17C0 001:525 JLINK_WriteReg(CFBP, 0x00000000)  returns 0x00 (0000ms, 0712ms total)
T17C0 001:525 JLINK_SetBPEx(Addr = 0x20000000, Type = 0xFFFFFFF2)  returns 0x00000010 (0000ms, 0712ms total)
T17C0 001:525 JLINK_Go() (0005ms, 0717ms total)
T17C0 001:530 JLINK_IsHalted()  returns FALSE (0001ms, 0718ms total)
T17C0 001:538 JLINK_IsHalted()  returns FALSE (0001ms, 0718ms total)
T17C0 001:540 JLINK_IsHalted()  returns FALSE (0001ms, 0718ms total)
T17C0 001:573 JLINK_IsHalted() -- CPU_ReadMem(2 bytes @ 0x20000000)  returns TRUE (0009ms, 0726ms total)
T17C0 001:582 JLINK_ReadReg(R15)  returns 0x20000000 (0000ms, 0717ms total)
T17C0 001:582 JLINK_ClrBPEx(BPHandle = 0x00000010)  returns 0x00 (0000ms, 0717ms total)
T17C0 001:582 JLINK_ReadReg(R0)  returns 0x00000000 (0000ms, 0717ms total)
T17C0 001:582 JLINK_WriteMem(0x20000164, 0x0400 Bytes, ...) -- Data:  FF 0B 2A 46 31 46 38 46 00 F0 A4 F8 2E 44 2F 44 ... -- CPU_WriteMem(1024 bytes @ 0x20000164)  returns 0x400 (0028ms, 0745ms total)
T17C0 001:610 JLINK_WriteReg(R0, 0x08003000)  returns 0x00 (0000ms, 0745ms total)
T17C0 001:610 JLINK_WriteReg(R1, 0x00000400)  returns 0x00 (0000ms, 0745ms total)
T17C0 001:610 JLINK_WriteReg(R2, 0x20000164)  returns 0x00 (0000ms, 0745ms total)
T17C0 001:610 JLINK_WriteReg(R3, 0x00000000)  returns 0x00 (0000ms, 0745ms total)
T17C0 001:610 JLINK_WriteReg(R4, 0x00000000)  returns 0x00 (0000ms, 0745ms total)
T17C0 001:610 JLINK_WriteReg(R5, 0x00000000)  returns 0x00 (0000ms, 0745ms total)
T17C0 001:610 JLINK_WriteReg(R6, 0x00000000)  returns 0x00 (0000ms, 0745ms total)
T17C0 001:610 JLINK_WriteReg(R7, 0x00000000)  returns 0x00 (0000ms, 0745ms total)
T17C0 001:610 JLINK_WriteReg(R8, 0x00000000)  returns 0x00 (0000ms, 0745ms total)
T17C0 001:610 JLINK_WriteReg(R9, 0x20000160)  returns 0x00 (0000ms, 0745ms total)
T17C0 001:610 JLINK_WriteReg(R10, 0x00000000)  returns 0x00 (0000ms, 0745ms total)
T17C0 001:610 JLINK_WriteReg(R11, 0x00000000)  returns 0x00 (0000ms, 0745ms total)
T17C0 001:610 JLINK_WriteReg(R12, 0x00000000)  returns 0x00 (0000ms, 0745ms total)
T17C0 001:610 JLINK_WriteReg(R13, 0x20000800)  returns 0x00 (0000ms, 0745ms total)
T17C0 001:610 JLINK_WriteReg(R14, 0x20000001)  returns 0x00 (0000ms, 0745ms total)
T17C0 001:610 JLINK_WriteReg(R15, 0x200000F4)  returns 0x00 (0000ms, 0745ms total)
T17C0 001:610 JLINK_WriteReg(XPSR, 0x01000000)  returns 0x00 (0000ms, 0745ms total)
T17C0 001:610 JLINK_WriteReg(MSP, 0x20000800)  returns 0x00 (0000ms, 0745ms total)
T17C0 001:610 JLINK_WriteReg(PSP, 0x20000800)  returns 0x00 (0000ms, 0745ms total)
